T0598 28146:723.713   SEGGER J-Link V6.62b Log File
T0598 28146:723.772   DLL Compiled: Feb 17 2020 18:41:45
T0598 28146:723.778   Logging started @ 2021-10-13 09:12
T0598 28146:723.784 JLINK_SetWarnOutHandler(...)
T0598 28146:723.788 - 0.007ms
T0598 28146:723.795 JLINK_OpenEx(...)
T0598 28146:725.359   Firmware: J-Link V9 compiled Jun  2 2222 22:22:22
T0598 28146:725.481   Decompressing FW timestamp took 103 us
T0598 28146:733.122   Hardware: V9.00
T0598 28146:733.138   S/N: 30000299
T0598 28146:733.145   OEM: SEGGER
T0598 28146:733.151   Feature(s): GDB, RDI, FlashBP, FlashDL, JFlash, RDDI
T0598 28146:734.201   TELNET listener socket opened on port 19021
T0598 28146:736.700   Device "CORTEX-M0" selected.
T0598 28146:737.284   WEBSRV Starting webserver
T0598 28146:737.447   WEBSRV Webserver running on local port 19080
T0598 28146:737.456 - 13.663ms returns "O.K."
T0598 28146:737.806 JLINK_GetEmuCaps()
T0598 28146:737.816 - 0.011ms returns 0xB9FF7BBF
T0598 28146:737.823 JLINK_TIF_GetAvailable(...)
T0598 28146:737.975 - 0.155ms
T0598 28146:737.982 JLINK_SetErrorOutHandler(...)
T0598 28146:737.986 - 0.005ms
T0598 28146:737.995 JLINK_ExecCommand("ProjectFile = "D:\PROJECT\MM32\MM32_GPIO\MM32F027x_Samples\LibSamples\PWR\PWR_Stop_RTC_Wakeup\KEILPRJ\JLinkSettings.ini"", ...). 
T0598 28146:738.272   Device "CORTEX-M0" selected.
T0598 28146:738.451 - 0.460ms returns 0x00
T0598 28146:738.466 JLINK_ExecCommand("Device = MM32F0273D7P", ...). 
T0598 28146:738.607   Device "CORTEX-M0" selected.
T0598 28146:738.766 - 0.298ms returns 0x00
T0598 28146:738.774 JLINK_ExecCommand("DisableConnectionTimeout", ...). 
T0598 28146:738.782 - 0.004ms returns 0x01
T0598 28146:738.788 JLINK_GetHardwareVersion()
T0598 28146:738.792 - 0.006ms returns 0x15F90
T0598 28146:738.798 JLINK_GetDLLVersion()  returns 66202
T0598 28146:738.804 JLINK_GetFirmwareString(...)
T0598 28146:738.808 - 0.005ms
T0598 28146:738.822 JLINK_GetDLLVersion()  returns 66202
T0598 28146:738.827 JLINK_GetCompileDateTime()
T0598 28146:738.830 - 0.005ms
T0598 28146:738.838 JLINK_GetFirmwareString(...)
T0598 28146:738.842 - 0.006ms
T0598 28146:738.849 JLINK_GetHardwareVersion()
T0598 28146:738.853 - 0.005ms returns 0x15F90
T0598 28146:738.869 JLINK_TIF_Select(JLINKARM_TIF_SWD)
T0598 28146:739.607 - 0.746ms returns 0x00
T0598 28146:739.625 JLINK_SetSpeed(100)
T0598 28146:739.802 - 0.185ms
T0598 28146:739.816 JLINK_GetId()
T0598 28146:743.146   Found SW-DP with ID 0x0BB11477
T0598 28146:752.280   Old FW that does not support reading DPIDR via DAP jobs
T0598 28146:757.013   Unknown DP version. Assuming DPv0
T0598 28146:757.033   Scanning AP map to find all available APs
T0598 28146:760.345   AP[1]: Stopped AP scan as end of AP map has been reached
T0598 28146:760.361   AP[0]: AHB-AP (IDR: 0x04770021)
T0598 28146:760.369   Iterating through AP map to find AHB-AP to use
T0598 28146:765.867   AP[0]: Core found
T0598 28146:765.882   AP[0]: AHB-AP ROM base: 0xE00FF000
T0598 28146:768.520   CPUID register: 0x410CC200. Implementer code: 0x41 (ARM)
T0598 28146:768.534   Found Cortex-M0 r0p0, Little endian.
T0598 28146:869.903    -- Max. mem block: 0x00010C80
T0598 28146:869.927    -- CPU_ReadMem(4 bytes @ 0xE000EDF0)
T0598 28146:873.223    -- CPU_WriteMem(4 bytes @ 0xE000EDF0)
T0598 28146:876.357    -- CPU_ReadMem(4 bytes @ 0xE0002000)
T0598 28146:879.420   FPUnit: 4 code (BP) slots and 0 literal slots
T0598 28146:879.432    -- CPU_ReadMem(4 bytes @ 0xE000EDFC)
T0598 28146:882.493    -- CPU_WriteMem(4 bytes @ 0xE000EDFC)
T0598 28146:885.601    -- CPU_ReadMem(4 bytes @ 0xE0001000)
T0598 28146:888.662    -- CPU_WriteMem(4 bytes @ 0xE0001000)
T0598 28146:891.886   CoreSight components:
T0598 28146:891.901   ROMTbl[0] @ E00FF000
T0598 28146:891.908    -- CPU_ReadMem(64 bytes @ 0xE00FF000)
T0598 28146:902.009    -- CPU_ReadMem(32 bytes @ 0xE000EFE0)
T0598 28146:908.460   ROMTbl[0][0]: E000E000, CID: B105E00D, PID: 000BB008 SCS
T0598 28146:908.480    -- CPU_ReadMem(32 bytes @ 0xE0001FE0)
T0598 28146:914.926   ROMTbl[0][1]: E0001000, CID: B105E00D, PID: 000BB00A DWT
T0598 28146:915.000    -- CPU_ReadMem(32 bytes @ 0xE0002FE0)
T0598 28146:921.589   ROMTbl[0][2]: E0002000, CID: B105E00D, PID: 000BB00B FPB
T0598 28146:922.573 - 182.777ms   returns 0x0BB11477
T0598 28146:922.612 JLINK_GetDLLVersion()  returns 66202
T0598 28146:922.632 JLINK_CORE_GetFound()
T0598 28146:922.642 - 0.014ms returns 0x60000FF
T0598 28146:922.655 JLINK_GetDebugInfo(0x100 = JLINKARM_ROM_TABLE_ADDR_INDEX)
T0598 28146:922.668   Value=0xE00FF000
T0598 28146:922.682 - 0.031ms returns 0x00
T0598 28146:922.716 JLINK_GetDebugInfo(0x100 = JLINKARM_ROM_TABLE_ADDR_INDEX)
T0598 28146:922.726   Value=0xE00FF000
T0598 28146:922.740 - 0.029ms returns 0x00
T0598 28146:922.752 JLINK_GetDebugInfo(0x101 = JLINKARM_DEBUG_INFO_ETM_ADDR_INDEX)
T0598 28146:922.763   Value=0x00000000
T0598 28146:922.776 - 0.028ms returns 0x00
T0598 28146:922.790   JLINK_ReadMemEx(0xE0041FF0, 0x0010 Bytes, ..., Flags = 0x02000004)
T0598 28146:922.814    -- CPU_ReadMem(16 bytes @ 0xE0041FF0)
T0598 28146:927.537   Data:  00 00 00 00 00 00 00 00 00 00 00 00 00 00 00 00
T0598 28146:927.583 - 4.799ms returns 0x10
T0598 28146:927.607 JLINK_GetDebugInfo(0x102 = JLINKARM_DEBUG_INFO_MTB_ADDR_INDEX)
T0598 28146:927.619   Value=0x00000000
T0598 28146:927.633 - 0.031ms returns 0x00
T0598 28146:927.644 JLINK_GetDebugInfo(0x103 = JLINKARM_DEBUG_INFO_TPIU_ADDR_INDEX)
T0598 28146:927.655   Value=0x00000000
T0598 28146:927.668 - 0.029ms returns 0x00
T0598 28146:927.683   JLINK_ReadMemEx(0xE0040FF0, 0x0010 Bytes, ..., Flags = 0x02000004)
T0598 28146:927.709    -- CPU_ReadMem(16 bytes @ 0xE0040FF0)
T0598 28146:932.440   Data:  00 00 00 00 00 00 00 00 00 00 00 00 00 00 00 00
T0598 28146:932.501 - 4.826ms returns 0x10
T0598 28146:932.532 JLINK_GetDebugInfo(0x104 = JLINKARM_DEBUG_INFO_ITM_ADDR_INDEX)
T0598 28146:932.548   Value=0xE0000000
T0598 28146:932.566 - 0.041ms returns 0x00
T0598 28146:932.584 JLINK_GetDebugInfo(0x105 = JLINKARM_DEBUG_INFO_DWT_ADDR_INDEX)
T0598 28146:932.597   Value=0xE0001000
T0598 28146:932.615 - 0.037ms returns 0x00
T0598 28146:932.632 JLINK_GetDebugInfo(0x106 = JLINKARM_DEBUG_INFO_FPB_ADDR_INDEX)
T0598 28146:932.645   Value=0xE0002000
T0598 28146:932.663 - 0.037ms returns 0x00
T0598 28146:932.677 JLINK_GetDebugInfo(0x107 = JLINKARM_DEBUG_INFO_NVIC_ADDR_INDEX)
T0598 28146:932.691   Value=0xE000E000
T0598 28146:932.708 - 0.037ms returns 0x00
T0598 28146:932.725 JLINK_GetDebugInfo(0x10C = JLINKARM_DEBUG_INFO_DBG_ADDR_INDEX)
T0598 28146:932.737   Value=0xE000EDF0
T0598 28146:932.755 - 0.036ms returns 0x00
T0598 28146:932.770 JLINK_GetDebugInfo(0x01 = Unknown)
T0598 28146:932.783   Value=0x00000000
T0598 28146:932.800 - 0.036ms returns 0x00
T0598 28146:932.826 JLINK_ReadMemU32(0xE000ED00, 0x0001 Items, ...)
T0598 28146:932.853    -- CPU_ReadMem(4 bytes @ 0xE000ED00)
T0598 28146:936.165   Data:  00 C2 0C 41
T0598 28146:936.232    - CPUID
T0598 28146:936.256 - 3.438ms returns 1
T0598 28146:936.293 JLINK_GetDebugInfo(0x10F = JLINKARM_DEBUG_INFO_HAS_CORTEX_M_SECURITY_EXT_INDEX)
T0598 28146:936.313   Value=0x00000000
T0598 28146:936.336 - 0.052ms returns 0x00
T0598 28146:936.509 JLINK_SetResetType(JLINKARM_CM3_RESET_TYPE_NORMAL)
T0598 28146:936.559 - 0.059ms returns JLINKARM_CM3_RESET_TYPE_NORMAL
T0598 28146:936.589 JLINK_Reset()
T0598 28146:936.627   CPU is running
T0598 28146:936.656    -- CPU_WriteMem(4 bytes @ 0xE000EDF0)
T0598 28146:939.835   CPU is running
T0598 28146:939.851    -- CPU_WriteMem(4 bytes @ 0xE000EDFC)
T0598 28146:943.094   Reset: Halt core after reset via DEMCR.VC_CORERESET.
T0598 28146:944.266   Reset: Reset device via AIRCR.SYSRESETREQ.
T0598 28146:944.278   CPU is running
T0598 28146:944.285    -- CPU_WriteMem(4 bytes @ 0xE000ED0C)
T0598 28147:001.344    -- CPU_ReadMem(4 bytes @ 0xE000EDF0)
T0598 28147:004.780    -- CPU_ReadMem(4 bytes @ 0xE000EDF0)
T0598 28147:008.063   CPU is running
T0598 28147:008.073    -- CPU_WriteMem(4 bytes @ 0xE000EDF0)
T0598 28147:011.290   CPU is running
T0598 28147:011.304    -- CPU_WriteMem(4 bytes @ 0xE000EDFC)
T0598 28147:019.888    -- CPU_ReadMem(4 bytes @ 0xE000EDF0)
T0598 28147:074.162    -- CPU_WriteMem(4 bytes @ 0xE0002000)
T0598 28147:077.494    -- CPU_ReadMem(4 bytes @ 0xE000EDFC)
T0598 28147:080.809    -- CPU_ReadMem(4 bytes @ 0xE0001000)
T0598 28147:084.391    -- CPU_WriteMem(4 bytes @ 0xE0001000)
T0598 28147:087.739 - 151.166ms
T0598 28147:087.853 JLINK_ReadReg(R15 (PC))
T0598 28147:087.866 - 0.014ms returns 0x0800040C
T0598 28147:087.871 JLINK_ReadReg(XPSR)
T0598 28147:087.875 - 0.005ms returns 0xC1000000
T0598 28147:087.880 JLINK_Halt()
T0598 28147:087.884 - 0.005ms returns 0x00
T0598 28147:087.889 JLINK_ReadMemU32(0xE000EDF0, 0x0001 Items, ...)
T0598 28147:087.897    -- CPU_ReadMem(4 bytes @ 0xE000EDF0)
T0598 28147:091.074   Data:  03 00 03 00
T0598 28147:091.086    - DHCSR
T0598 28147:091.091 - 3.204ms returns 1
T0598 28147:091.099 JLINK_WriteU32(0xE000EDF0, 0xA05F0003)
T0598 28147:091.103    - DHCSR
T0598 28147:091.115    -- CPU_WriteMem(4 bytes @ 0xE000EDF0)
T0598 28147:094.306 - 3.214ms returns 0
T0598 28147:094.318 JLINK_WriteU32(0xE000EDFC, 0x01000000)
T0598 28147:094.323    - DEMCR
T0598 28147:094.331    -- CPU_WriteMem(4 bytes @ 0xE000EDFC)
T0598 28147:097.631 - 3.320ms returns 0
T0598 28147:097.669 JLINK_GetHWStatus(...)
T0598 28147:097.963 - 0.308ms returns 0x00
T0598 28147:097.995 JLINK_GetNumBPUnits(Type = 0xFFFFFF00)
T0598 28147:098.000 - 0.006ms returns 0x04
T0598 28147:098.005 JLINK_GetNumBPUnits(Type = 0xF0)
T0598 28147:098.009 - 0.005ms returns 0x2000
T0598 28147:098.013 JLINK_GetNumWPUnits()
T0598 28147:098.017 - 0.005ms returns 0x02
T0598 28147:098.028 JLINK_GetSpeed()
T0598 28147:098.032 - 0.006ms returns 0x64
T0598 28147:098.040 JLINK_ReadMemU32(0xE000E004, 0x0001 Items, ...)
T0598 28147:098.046    -- CPU_ReadMem(4 bytes @ 0xE000E004)
T0598 28147:101.164   Data:  00 00 00 00
T0598 28147:101.175 - 3.138ms returns 1
T0598 28147:101.191 JLINK_ReadReg(R15 (PC))
T0598 28147:101.197 - 0.007ms returns 0x0800040C
T0598 28147:101.201 JLINK_ReadReg(XPSR)
T0598 28147:101.205 - 0.005ms returns 0xC1000000
T0598 28147:176.035 JLINK_SetResetType(JLINKARM_CM3_RESET_TYPE_NORMAL)
T0598 28147:176.056 - 0.023ms returns JLINKARM_CM3_RESET_TYPE_NORMAL
T0598 28147:176.062 JLINK_Reset()
T0598 28147:176.074    -- CPU_WriteMem(4 bytes @ 0xE000EDF0)
T0598 28147:179.205    -- CPU_WriteMem(4 bytes @ 0xE000EDFC)
T0598 28147:182.396   Reset: Halt core after reset via DEMCR.VC_CORERESET.
T0598 28147:183.487   Reset: Reset device via AIRCR.SYSRESETREQ.
T0598 28147:183.495    -- CPU_WriteMem(4 bytes @ 0xE000ED0C)
T0598 28147:240.501    -- CPU_ReadMem(4 bytes @ 0xE000EDF0)
T0598 28147:243.933    -- CPU_ReadMem(4 bytes @ 0xE000EDF0)
T0598 28147:247.352    -- CPU_WriteMem(4 bytes @ 0xE000EDF0)
T0598 28147:250.634    -- CPU_WriteMem(4 bytes @ 0xE000EDFC)
T0598 28147:259.021    -- CPU_ReadMem(4 bytes @ 0xE000EDF0)
T0598 28147:313.031    -- CPU_WriteMem(4 bytes @ 0xE0002000)
T0598 28147:316.405    -- CPU_ReadMem(4 bytes @ 0xE000EDFC)
T0598 28147:319.751    -- CPU_ReadMem(4 bytes @ 0xE0001000)
T0598 28147:323.114    -- CPU_WriteMem(4 bytes @ 0xE0001000)
T0598 28147:326.504 - 150.450ms
T0598 28147:326.545 JLINK_ReadReg(R15 (PC))
T0598 28147:326.552 - 0.009ms returns 0x0800040C
T0598 28147:326.558 JLINK_ReadReg(XPSR)
T0598 28147:326.562 - 0.006ms returns 0xC1000000
T0598 28147:326.824   JLINK_ReadMemEx(0x0800030C, 0x003C Bytes, ..., Flags = 0x02000000)
T0598 28147:326.835    -- CPU_ReadMem(60 bytes @ 0x0800030C)
T0598 28147:336.535   Data:  32 48 00 68 01 21 49 06 08 40 00 28 F7 D0 2F 48 ...
T0598 28147:336.613 - 9.800ms returns 0x3C
T0598 28147:336.670   JLINK_ReadMemEx(0x08000348, 0x003C Bytes, ..., Flags = 0x02000000)
T0598 28147:336.709    -- CPU_ReadMem(60 bytes @ 0x08000348)
T0598 28147:346.708   Data:  23 48 40 68 10 21 88 43 21 49 48 60 01 20 FF F7 ...
T0598 28147:346.743 - 10.076ms returns 0x3C
T0598 28147:346.760   JLINK_ReadMemEx(0x08000384, 0x003C Bytes, ..., Flags = 0x02000000)
T0598 28147:346.772    -- CPU_ReadMem(60 bytes @ 0x08000384)
T0598 28147:356.606   Data:  08 60 08 46 40 68 1D 49 08 40 12 49 48 60 08 46 ...
T0598 28147:356.675 - 9.924ms returns 0x3C
T0598 28147:356.734   JLINK_ReadMemEx(0x080003C0, 0x003C Bytes, ..., Flags = 0x02000000)
T0598 28147:356.773    -- CPU_ReadMem(60 bytes @ 0x080003C0)
T0598 28147:366.788   Data:  08 40 05 49 08 60 9F 20 00 04 88 60 FF F7 D0 FF ...
T0598 28147:366.859 - 10.136ms returns 0x3C
T0598 28147:366.928   JLINK_ReadMemEx(0x0800040A, 0x0002 Bytes, ..., Flags = 0x02000000)
T0598 28147:366.973    -- CPU_ReadMem(2 bytes @ 0x0800040A)
T0598 28147:370.394   Data:  8F 00
T0598 28147:370.466 - 3.549ms returns 0x02
T0598 28147:370.497   JLINK_ReadMemEx(0x0800040C, 0x003C Bytes, ..., Flags = 0x02000000)
T0598 28147:370.523    -- CPU_ReadMem(60 bytes @ 0x0800040C)
T0598 28147:380.191   Data:  06 48 80 F3 08 88 06 48 80 47 06 48 00 47 FE E7 ...
T0598 28147:380.202 - 9.707ms returns 0x3C
T0598 28148:664.803 JLINK_ReadReg(R0)
T0598 28148:668.347 - 3.551ms returns 0xFFFFFFFF
T0598 28148:668.360 JLINK_ReadReg(R1)
T0598 28148:668.365 - 0.006ms returns 0xFFFFFFFF
T0598 28148:668.369 JLINK_ReadReg(R2)
T0598 28148:668.373 - 0.015ms returns 0xFFFFFFFF
T0598 28148:668.387 JLINK_ReadReg(R3)
T0598 28148:668.391 - 0.006ms returns 0xFFFFFFFF
T0598 28148:668.397 JLINK_ReadReg(R4)
T0598 28148:668.401 - 0.006ms returns 0xFFFFFFFF
T0598 28148:668.406 JLINK_ReadReg(R5)
T0598 28148:668.410 - 0.006ms returns 0xFFFFFFFF
T0598 28148:668.415 JLINK_ReadReg(R6)
T0598 28148:668.419 - 0.005ms returns 0xFFFFFFFF
T0598 28148:668.423 JLINK_ReadReg(R7)
T0598 28148:668.427 - 0.011ms returns 0xFFFFFFFF
T0598 28148:668.437 JLINK_ReadReg(R8)
T0598 28148:668.441 - 0.006ms returns 0xFFFFFFFF
T0598 28148:668.448 JLINK_ReadReg(R9)
T0598 28148:668.453 - 0.007ms returns 0xFFFFFFFF
T0598 28148:668.458 JLINK_ReadReg(R10)
T0598 28148:668.462 - 0.006ms returns 0xFFFFFFFF
T0598 28148:668.467 JLINK_ReadReg(R11)
T0598 28148:668.471 - 0.006ms returns 0xFFFFFFFF
T0598 28148:668.476 JLINK_ReadReg(R12)
T0598 28148:668.480 - 0.005ms returns 0xFFFFFFFF
T0598 28148:668.485 JLINK_ReadReg(R13 (SP))
T0598 28148:668.489 - 0.006ms returns 0x20002250
T0598 28148:668.494 JLINK_ReadReg(R14)
T0598 28148:668.506 - 0.014ms returns 0xFFFFFFFF
T0598 28148:668.511 JLINK_ReadReg(R15 (PC))
T0598 28148:668.515 - 0.006ms returns 0x0800040C
T0598 28148:668.520 JLINK_ReadReg(XPSR)
T0598 28148:668.535 - 0.016ms returns 0xC1000000
T0598 28148:668.539 JLINK_ReadReg(MSP)
T0598 28148:668.543 - 0.006ms returns 0x20002250
T0598 28148:668.549 JLINK_ReadReg(PSP)
T0598 28148:668.553 - 0.006ms returns 0xFFFFFFFC
T0598 28148:668.558 JLINK_ReadReg(CFBP)
T0598 28148:668.562 - 0.006ms returns 0x00000000
T7474 28148:829.516   JLINK_ReadMemEx(0x0800040C, 0x0002 Bytes, ..., Flags = 0x02000000)
T7474 28148:829.545    -- CPU_ReadMem(2 bytes @ 0x0800040C)
T7474 28148:832.680   Data:  06 48
T7474 28148:832.705 - 3.192ms returns 0x02
T7474 28148:832.725   JLINK_SetBPEx(Addr = 0x080011C8, Type = 0xFFFFFFF2)
T7474 28148:832.736 - 0.015ms returns 0x00000001
T7474 28148:832.745   JLINK_SetBPEx(Addr = 0x080011C2, Type = 0xFFFFFFF2)
T7474 28148:832.754 - 0.011ms returns 0x00000002
T7474 28148:832.762   JLINK_SetBPEx(Addr = 0x08000FAE, Type = 0xFFFFFFF2)
T7474 28148:832.771 - 0.011ms returns 0x00000003
T7474 28148:832.779   JLINK_SetBPEx(Addr = 0x08000FA4, Type = 0xFFFFFFF2)
T7474 28148:832.788 - 0.012ms returns 0x00000004
T7474 28148:832.796   JLINK_SetBPEx(Addr = 0x080014BC, Type = 0xFFFFFFF2)
T7474 28148:832.809    -- CPU_ReadMem(4 bytes @ 0x080011C8)
T7474 28148:835.908    -- CPU_WriteMem(4 bytes @ 0x080011C8)
T7474 28148:839.229    -- CPU_ReadMem(4 bytes @ 0x080011C8)
T7474 28148:842.290    -- CPU_ReadMem(4 bytes @ 0x080011C8)
T7474 28148:845.357    -- CPU_ReadMem(4 bytes @ 0x080011C2)
T7474 28148:849.805    -- CPU_WriteMem(4 bytes @ 0x080011C2)
T7474 28149:054.477    -- CPU_ReadMem(4 bytes @ 0x080011C2)
T7474 28149:357.428    -- CPU_ReadMem(4 bytes @ 0x08000FAE)
T7474 28149:660.578    -- CPU_WriteMem(4 bytes @ 0x08000FAE)
T7474 28149:964.262    -- CPU_ReadMem(4 bytes @ 0x08000FAE)
T7474 28150:267.337    -- CPU_ReadMem(4 bytes @ 0x08000FAE)
T7474 28150:570.413    -- CPU_ReadMem(4 bytes @ 0x08000FA4)
T7474 28150:874.359    -- CPU_WriteMem(4 bytes @ 0x08000FA4)
T7474 28151:178.237    -- CPU_ReadMem(4 bytes @ 0x08000FA4)
T7474 28151:481.245    -- CPU_ReadMem(4 bytes @ 0x08000FA4)
T7474 28151:784.305    -- CPU_ReadMem(4 bytes @ 0x080014BC)
T7474 28152:088.320    -- CPU_WriteMem(4 bytes @ 0x080014BC)
T7474 28152:392.159    -- CPU_ReadMem(4 bytes @ 0x080014BC)
T7474 28152:695.311    -- CPU_ReadMem(4 bytes @ 0x080014BC)
T7474 28152:999.095 - 4166.355ms returns 0x00000000
T7474 28152:999.193   JLINK_SetBPEx(Addr = 0x080014BC, Type = 0xFFFFFFF2)
T7474 28152:999.240    -- CPU_ReadMem(4 bytes @ 0x080014BC)
T7474 28153:303.208    -- CPU_WriteMem(4 bytes @ 0x080014BC)
T7474 28153:607.545    -- CPU_ReadMem(4 bytes @ 0x080014BC)
T7474 28153:911.322    -- CPU_ReadMem(4 bytes @ 0x080014BC)
T7474 28154:215.064 - 1215.890ms returns 0x00000000
T0598 28154:215.122 JLINK_SetResetType(JLINKARM_CM3_RESET_TYPE_NORMAL)
T0598 28154:215.133 - 0.013ms returns JLINKARM_CM3_RESET_TYPE_NORMAL
T0598 28154:215.143 JLINK_ResetNoHalt()
T0598 28154:218.786   Found SW-DP with ID 0x0BB11477
T0598 28154:623.571   Failed to power up DAP
T0598 28154:787.977   Found SW-DP with ID 0x0BB11477
T0598 28154:792.910   Old FW that does not support reading DPIDR via DAP jobs
T0598 28154:797.708   Unknown DP version. Assuming DPv0
T0598 28154:797.728   AP map detection skipped. Manually configured AP map found.
T0598 28154:797.736   AP[0]: AHB-AP (IDR: Not set)
T0598 28154:803.195   AP[0]: Core found
T0598 28154:803.211   AP[0]: AHB-AP ROM base: 0xE00FF000
T0598 28154:805.918   CPUID register: 0x410CC200. Implementer code: 0x41 (ARM)
T0598 28154:805.932   Found Cortex-M0 r0p0, Little endian.
T0598 28154:906.965    -- Max. mem block: 0x00010BE0
T0598 28154:906.994    -- CPU_ReadMem(4 bytes @ 0xE000EDF0)
T0598 28154:910.186    -- CPU_ReadMem(4 bytes @ 0xE0002000)
T0598 28154:913.483   FPUnit: 4 code (BP) slots and 0 literal slots
T0598 28154:913.512    -- CPU_ReadMem(4 bytes @ 0xE000EDFC)
T0598 28154:916.809    -- CPU_ReadMem(4 bytes @ 0xE0001000)
T0598 28154:920.079   CoreSight components:
T0598 28154:920.120   ROMTbl[0] @ E00FF000
T0598 28154:920.137    -- CPU_ReadMem(64 bytes @ 0xE00FF000)
T0598 28154:930.888    -- CPU_ReadMem(32 bytes @ 0xE000EFE0)
T0598 28154:937.632   ROMTbl[0][0]: E000E000, CID: B105E00D, PID: 000BB008 SCS
T0598 28154:937.696    -- CPU_WriteMem(4 bytes @ 0xE0001000)
T0598 28154:940.932    -- CPU_ReadMem(32 bytes @ 0xE0001FE0)
T0598 28154:947.337   ROMTbl[0][1]: E0001000, CID: B105E00D, PID: 000BB00A DWT
T0598 28154:947.367    -- CPU_ReadMem(32 bytes @ 0xE0002FE0)
T0598 28154:953.871   ROMTbl[0][2]: E0002000, CID: B105E00D, PID: 000BB00B FPB
T0598 28154:953.909   JLINK_Reset()
T0598 28154:953.919      -- CPU_WriteMem(4 bytes @ 0xE000EDF0)
T0598 28154:957.139      -- CPU_WriteMem(4 bytes @ 0xE000EDFC)
T0598 28154:960.370     Reset: Halt core after reset via DEMCR.VC_CORERESET.
T0598 28154:961.989     Reset: Reset device via AIRCR.SYSRESETREQ.
T0598 28154:962.005      -- CPU_WriteMem(4 bytes @ 0xE000ED0C)
T0598 28155:018.757      -- CPU_ReadMem(4 bytes @ 0xE000EDF0)
T0598 28155:021.910      -- CPU_ReadMem(4 bytes @ 0xE000EDF0)
T0598 28155:025.044      -- CPU_WriteMem(4 bytes @ 0xE000EDF0)
T0598 28155:028.305      -- CPU_WriteMem(4 bytes @ 0xE000EDFC)
T0598 28155:037.252      -- CPU_ReadMem(4 bytes @ 0xE000EDF0)
T0598 28155:091.177      -- CPU_WriteMem(4 bytes @ 0xE0002000)
T0598 28155:095.023      -- CPU_ReadMem(4 bytes @ 0xE000EDFC)
T0598 28155:098.328      -- CPU_ReadMem(4 bytes @ 0xE0001000)
T0598 28155:101.673      -- CPU_WriteMem(4 bytes @ 0xE0001000)
T0598 28155:105.129   - 151.250ms
T0598 28155:105.169   JLINK_Go()
T0598 28155:105.186      -- CPU_WriteMem(4 bytes @ 0xE0002000)
T0598 28155:108.512      -- CPU_WriteMem(4 bytes @ 0xE0002000)
T0598 28155:111.977      -- CPU_WriteMem(4 bytes @ 0xE0002000)
T0598 28155:115.504      -- CPU_WriteMem(4 bytes @ 0xE0002000)
T0598 28155:119.032      -- CPU_ReadMem(4 bytes @ 0xE0001000)
T0598 28155:122.434      -- CPU_WriteMem(4 bytes @ 0xE0001000)
T0598 28155:122.502      -- CPU_WriteMem(4 bytes @ 0xE0002008)
T0598 28155:122.526      -- CPU_WriteMem(4 bytes @ 0xE000200C)
T0598 28155:122.551      -- CPU_WriteMem(4 bytes @ 0xE0002010)
T0598 28155:122.576      -- CPU_WriteMem(4 bytes @ 0xE0002014)
T0598 28155:137.822      -- CPU_WriteMem(4 bytes @ 0xE0001004)
T0598 28155:147.115   - 41.955ms
T0598 28155:147.128 - 931.986ms
T7474 28166:618.589 JLINK_ClrBPEx(BPHandle = 0x00000004)
T7474 28166:669.286 - 50.752ms returns 0x00
T7474 28166:669.358 JLINK_ClrBPEx(BPHandle = 0x00000003)
T7474 28166:669.365 - 0.010ms returns 0x00
T7474 28166:669.373 JLINK_ClrBPEx(BPHandle = 0x00000002)
T7474 28166:669.377 - 0.006ms returns 0x00
T7474 28166:669.383 JLINK_ClrBPEx(BPHandle = 0x00000001)
T7474 28166:669.388 - 0.006ms returns 0x00
T7474 28166:669.422 JLINK_ReadReg(R0)
T7474 28166:669.428 - 0.008ms returns 0x080011C9
T7474 28166:669.434 JLINK_ReadReg(R1)
T7474 28166:669.438 - 0.006ms returns 0x20002250
T7474 28166:669.443 JLINK_ReadReg(R2)
T7474 28166:669.447 - 0.006ms returns 0x00000000
T7474 28166:669.453 JLINK_ReadReg(R3)
T7474 28166:669.457 - 0.006ms returns 0x08003C91
T7474 28166:669.461 JLINK_ReadReg(R4)
T7474 28166:669.465 - 0.006ms returns 0x080041B8
T7474 28166:669.470 JLINK_ReadReg(R5)
T7474 28166:669.474 - 0.006ms returns 0x00000001
T7474 28166:669.479 JLINK_ReadReg(R6)
T7474 28166:669.483 - 0.006ms returns 0x080041B8
T7474 28166:669.488 JLINK_ReadReg(R7)
T7474 28166:669.491 - 0.006ms returns 0xFFFFFFFF
T7474 28166:669.497 JLINK_ReadReg(R8)
T7474 28166:669.513 - 0.017ms returns 0xFFFFFFFF
T7474 28166:669.517 JLINK_ReadReg(R9)
T7474 28166:669.521 - 0.005ms returns 0xFFFFFFFF
T7474 28166:669.526 JLINK_ReadReg(R10)
T7474 28166:669.529 - 0.005ms returns 0xFFFFFFFF
T7474 28166:669.534 JLINK_ReadReg(R11)
T7474 28166:669.538 - 0.005ms returns 0xFFFFFFFF
T7474 28166:669.542 JLINK_ReadReg(R12)
T7474 28166:669.547 - 0.006ms returns 0xFFFFFFFF
T7474 28166:669.552 JLINK_ReadReg(R13 (SP))
T7474 28166:669.557 - 0.006ms returns 0x20002250
T7474 28166:669.561 JLINK_ReadReg(R14)
T7474 28166:669.565 - 0.006ms returns 0x08003BED
T7474 28166:669.571 JLINK_ReadReg(R15 (PC))
T7474 28166:669.575 - 0.006ms returns 0x080011C8
T7474 28166:669.580 JLINK_ReadReg(XPSR)
T7474 28166:669.584 - 0.005ms returns 0x61000000
T7474 28166:669.589 JLINK_ReadReg(MSP)
T7474 28166:669.593 - 0.005ms returns 0x20002250
T7474 28166:669.597 JLINK_ReadReg(PSP)
T7474 28166:669.601 - 0.005ms returns 0xFFFFFFFC
T7474 28166:669.606 JLINK_ReadReg(CFBP)
T7474 28166:669.610 - 0.006ms returns 0x00000000
T0598 28166:678.173   JLINK_ReadMemEx(0x080011C6, 0x0002 Bytes, ..., Flags = 0x02000000)
T0598 28166:678.212    -- CPU_ReadMem(64 bytes @ 0x080011C0)
T0598 28166:688.491    -- Updating DA cache (64 bytes @ 0x080011C0)
T0598 28166:688.547    -- Read from DA cache (2 bytes @ 0x080011C6)
T0598 28166:688.557   Data:  08 BD
T0598 28166:688.564 - 10.394ms returns 0x02
T0598 28166:688.591   JLINK_ReadMemEx(0x080011C8, 0x003C Bytes, ..., Flags = 0x02000000)
T0598 28166:688.612    -- CPU_ReadMem(64 bytes @ 0x08001200)
T0598 28166:698.818    -- Updating DA cache (64 bytes @ 0x08001200)
T0598 28166:698.838    -- Read from DA cache (60 bytes @ 0x080011C8)
T0598 28166:698.845   Data:  05 20 FF F7 EE FC FF F7 31 F9 FF F7 10 FB E1 20 ...
T0598 28166:698.851 - 10.263ms returns 0x3C
T7474 28169:842.864   JLINK_ReadMemEx(0x080011C8, 0x0002 Bytes, ..., Flags = 0x02000000)
T7474 28169:842.898    -- Read from DA cache (2 bytes @ 0x080011C8)
T7474 28169:842.905   Data:  05 20
T7474 28169:842.912 - 0.050ms returns 0x02
T7474 28169:842.921   JLINK_SetBPEx(Addr = 0x080011C2, Type = 0xFFFFFFF2)
T7474 28169:842.928 - 0.009ms returns 0x00000007
T7474 28169:842.934   JLINK_SetBPEx(Addr = 0x08000FAE, Type = 0xFFFFFFF2)
T7474 28169:842.940 - 0.008ms returns 0x00000008
T7474 28169:842.945   JLINK_SetBPEx(Addr = 0x08000FA4, Type = 0xFFFFFFF2)
T7474 28169:842.961 - 0.018ms returns 0x00000009
T7474 28169:842.967   JLINK_SetBPEx(Addr = 0x080014BC, Type = 0xFFFFFFF2)
T7474 28169:842.973 - 0.007ms returns 0x0000000A
T7474 28169:842.984 JLINK_Go()
T7474 28169:846.540    -- CPU_WriteMem(4 bytes @ 0xE0002000)
T7474 28169:849.782    -- CPU_WriteMem(4 bytes @ 0xE0002000)
T7474 28169:853.070    -- CPU_WriteMem(4 bytes @ 0xE0002000)
T7474 28169:856.434    -- CPU_WriteMem(4 bytes @ 0xE0002000)
T7474 28169:859.703    -- CPU_ReadMem(4 bytes @ 0xE0001000)
T7474 28169:862.834    -- CPU_WriteMem(4 bytes @ 0xE0001000)
T7474 28169:862.846    -- CPU_WriteMem(4 bytes @ 0xE0002008)
T7474 28169:862.853    -- CPU_WriteMem(4 bytes @ 0xE000200C)
T7474 28169:862.858    -- CPU_WriteMem(4 bytes @ 0xE0002010)
T7474 28169:862.864    -- CPU_WriteMem(4 bytes @ 0xE0002014)
T7474 28169:884.423 - 41.455ms
T7474 28169:985.169 JLINK_IsHalted()
T7474 28170:035.757 - 50.635ms returns TRUE
T7474 28170:035.836 JLINK_Halt()
T7474 28170:035.854 - 0.027ms returns 0x00
T7474 28170:036.000 JLINK_IsHalted()
T7474 28170:036.049 - 0.057ms returns TRUE
T7474 28170:036.071 JLINK_IsHalted()
T7474 28170:036.087 - 0.024ms returns TRUE
T7474 28170:036.111 JLINK_IsHalted()
T7474 28170:036.127 - 0.024ms returns TRUE
T7474 28170:036.153 JLINK_ReadReg(R15 (PC))
T7474 28170:036.176 - 0.031ms returns 0x080011C2
T7474 28170:036.196 JLINK_ReadReg(XPSR)
T7474 28170:036.213 - 0.024ms returns 0x01000000
T7474 28170:036.244 JLINK_ClrBPEx(BPHandle = 0x00000007)
T7474 28170:036.263 - 0.027ms returns 0x00
T7474 28170:036.286 JLINK_ClrBPEx(BPHandle = 0x00000008)
T7474 28170:036.303 - 0.025ms returns 0x00
T7474 28170:036.325 JLINK_ClrBPEx(BPHandle = 0x00000009)
T7474 28170:036.342 - 0.025ms returns 0x00
T7474 28170:036.365 JLINK_ClrBPEx(BPHandle = 0x0000000A)
T7474 28170:036.382 - 0.025ms returns 0x00
T7474 28170:036.407 JLINK_ReadMemU32(0xE000ED30, 0x0001 Items, ...)
T7474 28170:036.435    -- CPU_ReadMem(4 bytes @ 0xE000ED30)
T7474 28170:040.221   Data:  02 00 00 00
T7474 28170:040.290 - 3.891ms returns 1
T7474 28170:040.319 JLINK_ReadMemU32(0xE0001028, 0x0001 Items, ...)
T7474 28170:040.352    -- CPU_ReadMem(4 bytes @ 0xE0001028)
T7474 28170:043.612   Data:  00 00 00 00
T7474 28170:043.632    - DWT_FUNC[0]
T7474 28170:043.637 - 3.320ms returns 1
T7474 28170:043.645 JLINK_ReadMemU32(0xE0001038, 0x0001 Items, ...)
T7474 28170:043.653    -- CPU_ReadMem(4 bytes @ 0xE0001038)
T7474 28170:046.782   Data:  00 00 00 00
T7474 28170:046.794    - DWT_FUNC[1]
T7474 28170:046.799 - 3.156ms returns 1
T7474 28170:046.832 JLINK_ReadReg(R0)
T7474 28170:046.838 - 0.008ms returns 0x20002248
T7474 28170:046.843 JLINK_ReadReg(R1)
T7474 28170:046.846 - 0.005ms returns 0x00000001
T7474 28170:046.851 JLINK_ReadReg(R2)
T7474 28170:046.854 - 0.005ms returns 0xE000E100
T7474 28170:046.859 JLINK_ReadReg(R3)
T7474 28170:046.863 - 0.005ms returns 0x00000018
T7474 28170:046.867 JLINK_ReadReg(R4)
T7474 28170:046.871 - 0.006ms returns 0x080041B8
T7474 28170:046.876 JLINK_ReadReg(R5)
T7474 28170:046.879 - 0.005ms returns 0x00000001
T7474 28170:046.884 JLINK_ReadReg(R6)
T7474 28170:046.887 - 0.005ms returns 0x080041B8
T7474 28170:046.892 JLINK_ReadReg(R7)
T7474 28170:046.896 - 0.005ms returns 0xFFFFFFFF
T7474 28170:046.900 JLINK_ReadReg(R8)
T7474 28170:046.904 - 0.005ms returns 0xFFFFFFFF
T7474 28170:046.908 JLINK_ReadReg(R9)
T7474 28170:046.912 - 0.005ms returns 0xFFFFFFFF
T7474 28170:046.916 JLINK_ReadReg(R10)
T7474 28170:046.920 - 0.005ms returns 0xFFFFFFFF
T7474 28170:046.925 JLINK_ReadReg(R11)
T7474 28170:046.928 - 0.005ms returns 0xFFFFFFFF
T7474 28170:046.933 JLINK_ReadReg(R12)
T7474 28170:046.936 - 0.005ms returns 0xFFFFFFFF
T7474 28170:046.941 JLINK_ReadReg(R13 (SP))
T7474 28170:046.945 - 0.005ms returns 0x20002248
T7474 28170:046.949 JLINK_ReadReg(R14)
T7474 28170:046.953 - 0.005ms returns 0x080011B5
T7474 28170:046.957 JLINK_ReadReg(R15 (PC))
T7474 28170:046.961 - 0.005ms returns 0x080011C2
T7474 28170:046.966 JLINK_ReadReg(XPSR)
T7474 28170:046.969 - 0.008ms returns 0x01000000
T7474 28170:046.979 JLINK_ReadReg(MSP)
T7474 28170:046.983 - 0.005ms returns 0x20002248
T7474 28170:046.987 JLINK_ReadReg(PSP)
T7474 28170:046.991 - 0.005ms returns 0xFFFFFFFC
T7474 28170:046.995 JLINK_ReadReg(CFBP)
T7474 28170:046.999 - 0.005ms returns 0x00000000
T0598 28170:047.160   JLINK_ReadMemEx(0x2000224C, 0x0004 Bytes, ..., Flags = 0x02000000)
T0598 28170:047.176    -- CPU_ReadMem(4 bytes @ 0x2000224C)
T0598 28170:050.343   Data:  E3 11 00 08
T0598 28170:050.354 - 3.197ms returns 0x04
T0598 28170:055.731   JLINK_ReadMemEx(0x080011C0, 0x003C Bytes, ..., Flags = 0x02000000)
T0598 28170:055.753    -- CPU_ReadMem(64 bytes @ 0x080011C0)
T0598 28170:066.098    -- Updating DA cache (64 bytes @ 0x080011C0)
T0598 28170:066.125    -- Read from DA cache (60 bytes @ 0x080011C0)
T0598 28170:066.132   Data:  C1 70 00 F0 13 FF 08 BD 05 20 FF F7 EE FC FF F7 ...
T0598 28170:066.137 - 10.408ms returns 0x3C
T7474 28172:397.749   JLINK_ReadMemEx(0x080011C2, 0x0002 Bytes, ..., Flags = 0x02000000)
T7474 28172:397.777    -- Read from DA cache (2 bytes @ 0x080011C2)
T7474 28172:397.788   Data:  00 F0
T7474 28172:397.797 - 0.052ms returns 0x02
T7474 28172:397.816 JLINK_Step()
T7474 28172:401.539    -- Read from DA cache (2 bytes @ 0x080011C2)
T7474 28172:401.580    -- CPU_ReadMem(4 bytes @ 0xE000ED18)
T7474 28172:404.740    -- CPU_WriteMem(4 bytes @ 0xE000ED18)
T7474 28172:407.836    -- CPU_ReadMem(4 bytes @ 0xE000ED18)
T7474 28172:410.849    -- CPU_WriteMem(4 bytes @ 0xE000ED18)
T7474 28172:413.936    -- CPU_ReadMem(4 bytes @ 0xE0001004)
T7474 28172:416.996    -- Not simulated
T7474 28172:417.018    -- CPU_WriteMem(4 bytes @ 0xE0002008)
T7474 28172:417.038    -- CPU_WriteMem(4 bytes @ 0xE000200C)
T7474 28172:417.044    -- CPU_WriteMem(4 bytes @ 0xE0002010)
T7474 28172:417.050    -- CPU_WriteMem(4 bytes @ 0xE0002014)
T7474 28172:484.917 - 87.152ms returns 0x00
T7474 28172:485.006 JLINK_ReadReg(R15 (PC))
T7474 28172:485.032 - 0.035ms returns 0x08001FEC
T7474 28172:485.056 JLINK_ReadReg(XPSR)
T7474 28172:485.077 - 0.029ms returns 0x01000000
T7474 28172:485.296 JLINK_ReadReg(R0)
T7474 28172:485.366 - 0.082ms returns 0x20002248
T7474 28172:485.390 JLINK_ReadReg(R1)
T7474 28172:485.409 - 0.027ms returns 0x00000001
T7474 28172:485.428 JLINK_ReadReg(R2)
T7474 28172:485.445 - 0.024ms returns 0xE000E100
T7474 28172:485.464 JLINK_ReadReg(R3)
T7474 28172:485.481 - 0.025ms returns 0x00000018
T7474 28172:485.501 JLINK_ReadReg(R4)
T7474 28172:485.517 - 0.025ms returns 0x080041B8
T7474 28172:485.537 JLINK_ReadReg(R5)
T7474 28172:485.553 - 0.024ms returns 0x00000001
T7474 28172:485.572 JLINK_ReadReg(R6)
T7474 28172:485.589 - 0.025ms returns 0x080041B8
T7474 28172:485.608 JLINK_ReadReg(R7)
T7474 28172:485.624 - 0.024ms returns 0xFFFFFFFF
T7474 28172:485.644 JLINK_ReadReg(R8)
T7474 28172:485.661 - 0.025ms returns 0xFFFFFFFF
T7474 28172:485.681 JLINK_ReadReg(R9)
T7474 28172:485.698 - 0.025ms returns 0xFFFFFFFF
T7474 28172:485.718 JLINK_ReadReg(R10)
T7474 28172:485.734 - 0.025ms returns 0xFFFFFFFF
T7474 28172:485.754 JLINK_ReadReg(R11)
T7474 28172:485.770 - 0.025ms returns 0xFFFFFFFF
T7474 28172:485.790 JLINK_ReadReg(R12)
T7474 28172:485.808 - 0.025ms returns 0xFFFFFFFF
T7474 28172:485.827 JLINK_ReadReg(R13 (SP))
T7474 28172:485.845 - 0.026ms returns 0x20002248
T7474 28172:485.864 JLINK_ReadReg(R14)
T7474 28172:485.881 - 0.024ms returns 0x080011C7
T7474 28172:485.900 JLINK_ReadReg(R15 (PC))
T7474 28172:485.917 - 0.025ms returns 0x08001FEC
T7474 28172:485.936 JLINK_ReadReg(XPSR)
T7474 28172:485.953 - 0.024ms returns 0x01000000
T7474 28172:485.972 JLINK_ReadReg(MSP)
T7474 28172:485.988 - 0.024ms returns 0x20002248
T7474 28172:486.007 JLINK_ReadReg(PSP)
T7474 28172:486.024 - 0.025ms returns 0xFFFFFFFC
T7474 28172:486.044 JLINK_ReadReg(CFBP)
T7474 28172:486.061 - 0.029ms returns 0x00000000
T0598 28172:486.629   JLINK_ReadMemEx(0x2000224C, 0x0004 Bytes, ..., Flags = 0x02000000)
T0598 28172:486.703    -- CPU_ReadMem(4 bytes @ 0x2000224C)
T0598 28172:490.073   Data:  E3 11 00 08
T0598 28172:490.259 - 3.639ms returns 0x04
T0598 28172:499.223   JLINK_ReadMemEx(0x08001FEA, 0x0002 Bytes, ..., Flags = 0x02000000)
T0598 28172:499.249    -- CPU_ReadMem(64 bytes @ 0x08001FC0)
T0598 28172:509.412    -- Updating DA cache (64 bytes @ 0x08001FC0)
T0598 28172:509.432    -- Read from DA cache (2 bytes @ 0x08001FEA)
T0598 28172:509.438   Data:  70 47
T0598 28172:509.444 - 10.224ms returns 0x02
T0598 28172:509.455   JLINK_ReadMemEx(0x08001FEC, 0x0014 Bytes, ..., Flags = 0x02000000)
T0598 28172:509.463    -- Read from DA cache (20 bytes @ 0x08001FEC)
T0598 28172:509.469   Data:  C1 78 00 29 25 D0 26 49 03 22 12 02 89 18 02 78 ...
T0598 28172:509.474 - 0.022ms returns 0x14
T0598 28172:509.479   JLINK_ReadMemEx(0x08002000, 0x0028 Bytes, ..., Flags = 0x02000000)
T0598 28172:509.487    -- CPU_ReadMem(64 bytes @ 0x08002000)
T0598 28172:519.640    -- Updating DA cache (64 bytes @ 0x08002000)
T0598 28172:519.667    -- Read from DA cache (40 bytes @ 0x08002000)
T0598 28172:519.675   Data:  89 58 02 78 92 07 D3 0E FF 22 9A 40 91 43 82 78 ...
T0598 28172:519.680 - 10.203ms returns 0x28
T7474 28173:966.539   JLINK_ReadMemEx(0x08001FEC, 0x0002 Bytes, ..., Flags = 0x02000000)
T7474 28173:966.567    -- Read from DA cache (2 bytes @ 0x08001FEC)
T7474 28173:966.573   Data:  C1 78
T7474 28173:966.579 - 0.043ms returns 0x02
T7474 28173:966.587 JLINK_Step()
T7474 28173:970.114    -- Read from DA cache (2 bytes @ 0x08001FEC)
T7474 28173:970.137    -- CPU_ReadMem(4 bytes @ 0xE0001004)
T7474 28173:973.143    -- Not simulated
T7474 28174:028.417 - 61.846ms returns 0x00
T7474 28174:028.448 JLINK_ReadReg(R15 (PC))
T7474 28174:028.454 - 0.008ms returns 0x08001FEE
T7474 28174:028.459 JLINK_ReadReg(XPSR)
T7474 28174:028.463 - 0.006ms returns 0x01000000
T7474 28174:028.478 JLINK_Step()
T7474 28174:028.500    -- CPU_ReadMem(64 bytes @ 0x08001FC0)
T7474 28174:038.698    -- Updating DA cache (64 bytes @ 0x08001FC0)
T7474 28174:038.716    -- Read from DA cache (2 bytes @ 0x08001FEE)
T7474 28174:038.726    -- CPU_ReadMem(4 bytes @ 0xE0001004)
T7474 28174:041.853    -- Simulated
T7474 28174:041.865 - 13.389ms returns 0x00
T7474 28174:041.876 JLINK_ReadReg(R15 (PC))
T7474 28174:041.882 - 0.007ms returns 0x08001FF0
T7474 28174:041.887 JLINK_ReadReg(XPSR)
T7474 28174:041.891 - 0.005ms returns 0x21000000
T7474 28174:041.904 JLINK_Step()
T7474 28174:041.910    -- Read from DA cache (2 bytes @ 0x08001FF0)
T7474 28174:041.916    -- Simulated
T7474 28174:041.922 - 0.019ms returns 0x00
T7474 28174:041.928 JLINK_ReadReg(R15 (PC))
T7474 28174:041.932 - 0.006ms returns 0x08001FF2
T7474 28174:041.936 JLINK_ReadReg(XPSR)
T7474 28174:041.940 - 0.005ms returns 0x21000000
T7474 28174:041.988 JLINK_ReadReg(R0)
T7474 28174:041.994 - 0.007ms returns 0x20002248
T7474 28174:041.998 JLINK_ReadReg(R1)
T7474 28174:042.002 - 0.005ms returns 0x00000001
T7474 28174:042.007 JLINK_ReadReg(R2)
T7474 28174:042.010 - 0.005ms returns 0xE000E100
T7474 28174:042.015 JLINK_ReadReg(R3)
T7474 28174:042.019 - 0.005ms returns 0x00000018
T7474 28174:042.023 JLINK_ReadReg(R4)
T7474 28174:042.027 - 0.005ms returns 0x080041B8
T7474 28174:042.031 JLINK_ReadReg(R5)
T7474 28174:042.035 - 0.005ms returns 0x00000001
T7474 28174:042.039 JLINK_ReadReg(R6)
T7474 28174:042.043 - 0.005ms returns 0x080041B8
T7474 28174:042.047 JLINK_ReadReg(R7)
T7474 28174:042.051 - 0.005ms returns 0xFFFFFFFF
T7474 28174:042.055 JLINK_ReadReg(R8)
T7474 28174:042.059 - 0.005ms returns 0xFFFFFFFF
T7474 28174:042.064 JLINK_ReadReg(R9)
T7474 28174:042.067 - 0.005ms returns 0xFFFFFFFF
T7474 28174:042.072 JLINK_ReadReg(R10)
T7474 28174:042.075 - 0.005ms returns 0xFFFFFFFF
T7474 28174:042.080 JLINK_ReadReg(R11)
T7474 28174:042.083 - 0.005ms returns 0xFFFFFFFF
T7474 28174:042.088 JLINK_ReadReg(R12)
T7474 28174:042.091 - 0.005ms returns 0xFFFFFFFF
T7474 28174:042.096 JLINK_ReadReg(R13 (SP))
T7474 28174:042.099 - 0.005ms returns 0x20002248
T7474 28174:042.104 JLINK_ReadReg(R14)
T7474 28174:042.108 - 0.005ms returns 0x080011C7
T7474 28174:042.117 JLINK_ReadReg(R15 (PC))
T7474 28174:042.123 - 0.007ms returns 0x08001FF2
T7474 28174:042.128 JLINK_ReadReg(XPSR)
T7474 28174:042.131 - 0.005ms returns 0x21000000
T7474 28174:042.136 JLINK_ReadReg(MSP)
T7474 28174:042.140 - 0.006ms returns 0x20002248
T7474 28174:042.144 JLINK_ReadReg(PSP)
T7474 28174:042.148 - 0.005ms returns 0xFFFFFFFC
T7474 28174:042.152 JLINK_ReadReg(CFBP)
T7474 28174:042.156 - 0.005ms returns 0x00000000
T0598 28174:042.311   JLINK_ReadMemEx(0x2000224C, 0x0004 Bytes, ..., Flags = 0x02000000)
T0598 28174:042.327    -- CPU_ReadMem(4 bytes @ 0x2000224C)
T0598 28174:045.451   Data:  E3 11 00 08
T0598 28174:045.460 - 3.151ms returns 0x04
T0598 28174:047.370   JLINK_ReadMemEx(0x08001FEC, 0x0014 Bytes, ..., Flags = 0x02000000)
T0598 28174:047.383    -- Read from DA cache (20 bytes @ 0x08001FEC)
T0598 28174:047.389   Data:  C1 78 00 29 25 D0 26 49 03 22 12 02 89 18 02 78 ...
T0598 28174:047.394 - 0.026ms returns 0x14
T0598 28174:047.399   JLINK_ReadMemEx(0x08002000, 0x0028 Bytes, ..., Flags = 0x02000000)
T0598 28174:047.406    -- CPU_ReadMem(64 bytes @ 0x08002000)
T0598 28174:057.593    -- Updating DA cache (64 bytes @ 0x08002000)
T0598 28174:057.605    -- Read from DA cache (40 bytes @ 0x08002000)
T0598 28174:057.617   Data:  89 58 02 78 92 07 D3 0E FF 22 9A 40 91 43 82 78 ...
T0598 28174:057.623 - 10.225ms returns 0x28
T7474 28174:576.434   JLINK_ReadMemEx(0x08001FF2, 0x0002 Bytes, ..., Flags = 0x02000000)
T7474 28174:576.459    -- Read from DA cache (2 bytes @ 0x08001FF2)
T7474 28174:576.466   Data:  26 49
T7474 28174:576.472 - 0.040ms returns 0x02
T7474 28174:576.479 JLINK_Step()
T7474 28174:580.001    -- Read from DA cache (2 bytes @ 0x08001FF2)
T7474 28174:580.016    -- Not simulated
T7474 28174:580.032    -- CPU_WriteMem(4 bytes @ 0xE0001004)
T7474 28174:645.122 - 68.702ms returns 0x00
T7474 28174:645.223 JLINK_ReadReg(R15 (PC))
T7474 28174:645.251 - 0.038ms returns 0x08001FF4
T7474 28174:645.277 JLINK_ReadReg(XPSR)
T7474 28174:645.295 - 0.026ms returns 0x21000000
T7474 28174:645.342   JLINK_ReadMemEx(0x08001FF4, 0x000C Bytes, ..., Flags = 0x02000000)
T7474 28174:645.384    -- CPU_ReadMem(64 bytes @ 0x08001FC0)
T7474 28174:655.825    -- Updating DA cache (64 bytes @ 0x08001FC0)
T7474 28174:655.891    -- Read from DA cache (12 bytes @ 0x08001FF4)
T7474 28174:655.919   Data:  03 22 12 02 89 18 02 78 92 10 92 00
T7474 28174:655.943 - 10.611ms returns 0x0C
T7474 28174:655.981   JLINK_ReadMemEx(0x08002000, 0x0030 Bytes, ..., Flags = 0x02000000)
T7474 28174:656.021    -- CPU_ReadMem(64 bytes @ 0x08002000)
T7474 28174:666.898    -- Updating DA cache (64 bytes @ 0x08002000)
T7474 28174:666.924    -- Read from DA cache (48 bytes @ 0x08002000)
T7474 28174:666.931   Data:  89 58 02 78 92 07 D3 0E FF 22 9A 40 91 43 82 78 ...
T7474 28174:666.937 - 10.959ms returns 0x30
T7474 28174:666.949   JLINK_ReadMemEx(0x08001FF4, 0x0002 Bytes, ..., Flags = 0x02000000)
T7474 28174:666.973    -- Read from DA cache (2 bytes @ 0x08001FF4)
T7474 28174:666.978   Data:  03 22
T7474 28174:666.984 - 0.037ms returns 0x02
T7474 28174:666.992   JLINK_ReadMemEx(0x08001FF6, 0x0002 Bytes, ..., Flags = 0x02000000)
T7474 28174:666.998    -- Read from DA cache (2 bytes @ 0x08001FF6)
T7474 28174:667.003   Data:  12 02
T7474 28174:667.009 - 0.019ms returns 0x02
T7474 28174:667.025 JLINK_Step()
T7474 28174:667.042    -- Read from DA cache (2 bytes @ 0x08001FF4)
T7474 28174:667.050    -- CPU_ReadMem(4 bytes @ 0xE0001004)
T7474 28174:670.299    -- Simulated
T7474 28174:670.331 - 3.309ms returns 0x00
T7474 28174:670.352 JLINK_ReadReg(R15 (PC))
T7474 28174:670.364 - 0.015ms returns 0x08001FF6
T7474 28174:670.372 JLINK_ReadReg(XPSR)
T7474 28174:670.380 - 0.011ms returns 0x21000000
T7474 28174:670.474   JLINK_ReadMemEx(0x08001FF6, 0x0002 Bytes, ..., Flags = 0x02000000)
T7474 28174:670.501    -- Read from DA cache (2 bytes @ 0x08001FF6)
T7474 28174:670.512   Data:  12 02
T7474 28174:670.523 - 0.053ms returns 0x02
T7474 28174:670.533   JLINK_ReadMemEx(0x08001FF8, 0x0008 Bytes, ..., Flags = 0x02000000)
T7474 28174:670.552    -- Read from DA cache (8 bytes @ 0x08001FF8)
T7474 28174:670.562   Data:  89 18 02 78 92 10 92 00
T7474 28174:670.572 - 0.042ms returns 0x08
T7474 28174:670.580   JLINK_ReadMemEx(0x08002000, 0x0034 Bytes, ..., Flags = 0x02000000)
T7474 28174:670.591    -- Read from DA cache (52 bytes @ 0x08002000)
T7474 28174:670.602   Data:  89 58 02 78 92 07 D3 0E FF 22 9A 40 91 43 82 78 ...
T7474 28174:670.611 - 0.034ms returns 0x34
T7474 28174:670.620   JLINK_ReadMemEx(0x08001FF8, 0x0002 Bytes, ..., Flags = 0x02000000)
T7474 28174:670.631    -- Read from DA cache (2 bytes @ 0x08001FF8)
T7474 28174:670.641   Data:  89 18
T7474 28174:670.651 - 0.034ms returns 0x02
T7474 28174:670.662 JLINK_Step()
T7474 28174:670.677    -- Read from DA cache (2 bytes @ 0x08001FF6)
T7474 28174:670.688    -- Simulated
T7474 28174:670.697 - 0.038ms returns 0x00
T7474 28174:670.706 JLINK_ReadReg(R15 (PC))
T7474 28174:670.713 - 0.010ms returns 0x08001FF8
T7474 28174:670.721 JLINK_ReadReg(XPSR)
T7474 28174:670.727 - 0.009ms returns 0x01000000
T7474 28174:670.739   JLINK_ReadMemEx(0x08001FF8, 0x0008 Bytes, ..., Flags = 0x02000000)
T7474 28174:670.749    -- Read from DA cache (8 bytes @ 0x08001FF8)
T7474 28174:670.758   Data:  89 18 02 78 92 10 92 00
T7474 28174:670.767 - 0.031ms returns 0x08
T7474 28174:670.775   JLINK_ReadMemEx(0x08002000, 0x0034 Bytes, ..., Flags = 0x02000000)
T7474 28174:670.785    -- Read from DA cache (52 bytes @ 0x08002000)
T7474 28174:670.794   Data:  89 58 02 78 92 07 D3 0E FF 22 9A 40 91 43 82 78 ...
T7474 28174:670.803 - 0.031ms returns 0x34
T7474 28174:670.811   JLINK_ReadMemEx(0x08001FF8, 0x0002 Bytes, ..., Flags = 0x02000000)
T7474 28174:670.821    -- Read from DA cache (2 bytes @ 0x08001FF8)
T7474 28174:670.830   Data:  89 18
T7474 28174:670.840 - 0.032ms returns 0x02
T7474 28174:670.848   JLINK_ReadMemEx(0x08001FFA, 0x0002 Bytes, ..., Flags = 0x02000000)
T7474 28174:670.857    -- Read from DA cache (2 bytes @ 0x08001FFA)
T7474 28174:670.866   Data:  02 78
T7474 28174:670.875 - 0.030ms returns 0x02
T7474 28174:670.884 JLINK_Step()
T7474 28174:670.891    -- Read from DA cache (2 bytes @ 0x08001FF8)
T7474 28174:670.902    -- Simulated
T7474 28174:670.910 - 0.029ms returns 0x00
T7474 28174:670.919 JLINK_ReadReg(R15 (PC))
T7474 28174:670.926 - 0.009ms returns 0x08001FFA
T7474 28174:670.933 JLINK_ReadReg(XPSR)
T7474 28174:670.939 - 0.009ms returns 0x81000000
T7474 28174:670.948   JLINK_ReadMemEx(0x08001FFA, 0x0002 Bytes, ..., Flags = 0x02000000)
T7474 28174:670.957    -- Read from DA cache (2 bytes @ 0x08001FFA)
T7474 28174:670.967   Data:  02 78
T7474 28174:670.975 - 0.030ms returns 0x02
T7474 28174:670.983   JLINK_ReadMemEx(0x08001FFC, 0x0004 Bytes, ..., Flags = 0x02000000)
T7474 28174:670.993    -- Read from DA cache (4 bytes @ 0x08001FFC)
T7474 28174:671.002   Data:  92 10 92 00
T7474 28174:671.011 - 0.032ms returns 0x04
T7474 28174:671.020   JLINK_ReadMemEx(0x08002000, 0x0038 Bytes, ..., Flags = 0x02000000)
T7474 28174:671.030    -- Read from DA cache (56 bytes @ 0x08002000)
T7474 28174:671.040   Data:  89 58 02 78 92 07 D3 0E FF 22 9A 40 91 43 82 78 ...
T7474 28174:671.048 - 0.031ms returns 0x38
T7474 28174:671.056   JLINK_ReadMemEx(0x08001FFC, 0x0002 Bytes, ..., Flags = 0x02000000)
T7474 28174:671.066    -- Read from DA cache (2 bytes @ 0x08001FFC)
T7474 28174:671.075   Data:  92 10
T7474 28174:671.084 - 0.031ms returns 0x02
T7474 28174:671.093 JLINK_Step()
T7474 28174:671.100    -- Read from DA cache (2 bytes @ 0x08001FFA)
T7474 28174:671.110    -- Not simulated
T7474 28174:671.130    -- CPU_WriteMem(4 bytes @ 0xE0001004)
T7474 28174:740.344 - 69.294ms returns 0x00
T7474 28174:740.415 JLINK_ReadReg(R15 (PC))
T7474 28174:740.433 - 0.024ms returns 0x08001FFC
T7474 28174:740.448 JLINK_ReadReg(XPSR)
T7474 28174:740.459 - 0.017ms returns 0x81000000
T7474 28174:740.491   JLINK_ReadMemEx(0x08001FFC, 0x0004 Bytes, ..., Flags = 0x02000000)
T7474 28174:740.521    -- CPU_ReadMem(64 bytes @ 0x08001FC0)
T7474 28174:751.350    -- Updating DA cache (64 bytes @ 0x08001FC0)
T7474 28174:751.378    -- Read from DA cache (4 bytes @ 0x08001FFC)
T7474 28174:751.387   Data:  92 10 92 00
T7474 28174:751.392 - 10.904ms returns 0x04
T7474 28174:751.404   JLINK_ReadMemEx(0x08002000, 0x0038 Bytes, ..., Flags = 0x02000000)
T7474 28174:751.416    -- CPU_ReadMem(64 bytes @ 0x08002000)
T7474 28174:762.208    -- Updating DA cache (64 bytes @ 0x08002000)
T7474 28174:762.236    -- Read from DA cache (56 bytes @ 0x08002000)
T7474 28174:762.243   Data:  89 58 02 78 92 07 D3 0E FF 22 9A 40 91 43 82 78 ...
T7474 28174:762.248 - 10.846ms returns 0x38
T7474 28174:762.261   JLINK_ReadMemEx(0x08001FFC, 0x0002 Bytes, ..., Flags = 0x02000000)
T7474 28174:762.272    -- Read from DA cache (2 bytes @ 0x08001FFC)
T7474 28174:762.277   Data:  92 10
T7474 28174:762.283 - 0.024ms returns 0x02
T7474 28174:762.345   JLINK_ReadMemEx(0x08001FFE, 0x0002 Bytes, ..., Flags = 0x02000000)
T7474 28174:762.362    -- Read from DA cache (2 bytes @ 0x08001FFE)
T7474 28174:762.367   Data:  92 00
T7474 28174:762.373 - 0.030ms returns 0x02
T7474 28174:762.382 JLINK_Step()
T7474 28174:762.387    -- Read from DA cache (2 bytes @ 0x08001FFC)
T7474 28174:762.394    -- CPU_ReadMem(4 bytes @ 0xE0001004)
T7474 28174:765.702    -- Simulated
T7474 28174:765.766 - 3.393ms returns 0x00
T7474 28174:765.804 JLINK_ReadReg(R15 (PC))
T7474 28174:765.828 - 0.033ms returns 0x08001FFE
T7474 28174:765.848 JLINK_ReadReg(XPSR)
T7474 28174:765.866 - 0.026ms returns 0x21000000
T7474 28174:765.908   JLINK_ReadMemEx(0x08001FFE, 0x0002 Bytes, ..., Flags = 0x02000000)
T7474 28174:765.940    -- Read from DA cache (2 bytes @ 0x08001FFE)
T7474 28174:765.965   Data:  92 00
T7474 28174:765.989 - 0.091ms returns 0x02
T7474 28174:766.011   JLINK_ReadMemEx(0x08002000, 0x003C Bytes, ..., Flags = 0x02000000)
T7474 28174:766.036    -- Read from DA cache (60 bytes @ 0x08002000)
T7474 28174:766.061   Data:  89 58 02 78 92 07 D3 0E FF 22 9A 40 91 43 82 78 ...
T7474 28174:766.085 - 0.082ms returns 0x3C
T7474 28174:766.107   JLINK_ReadMemEx(0x08002000, 0x0002 Bytes, ..., Flags = 0x02000000)
T7474 28174:766.132    -- Read from DA cache (2 bytes @ 0x08002000)
T7474 28174:766.155   Data:  89 58
T7474 28174:766.179 - 0.081ms returns 0x02
T7474 28174:766.204 JLINK_Step()
T7474 28174:766.222    -- Read from DA cache (2 bytes @ 0x08001FFE)
T7474 28174:766.254    -- Simulated
T7474 28174:766.278 - 0.081ms returns 0x00
T7474 28174:766.301 JLINK_ReadReg(R15 (PC))
T7474 28174:766.318 - 0.025ms returns 0x08002000
T7474 28174:766.338 JLINK_ReadReg(XPSR)
T7474 28174:766.354 - 0.024ms returns 0x01000000
T7474 28174:766.378   JLINK_ReadMemEx(0x08002000, 0x003C Bytes, ..., Flags = 0x02000000)
T7474 28174:766.403    -- Read from DA cache (60 bytes @ 0x08002000)
T7474 28174:766.427   Data:  89 58 02 78 92 07 D3 0E FF 22 9A 40 91 43 82 78 ...
T7474 28174:766.450 - 0.081ms returns 0x3C
T7474 28174:766.471   JLINK_ReadMemEx(0x08002000, 0x0002 Bytes, ..., Flags = 0x02000000)
T7474 28174:766.496    -- Read from DA cache (2 bytes @ 0x08002000)
T7474 28174:766.519   Data:  89 58
T7474 28174:766.543 - 0.081ms returns 0x02
T7474 28174:766.563   JLINK_ReadMemEx(0x08002002, 0x0002 Bytes, ..., Flags = 0x02000000)
T7474 28174:766.588    -- Read from DA cache (2 bytes @ 0x08002002)
T7474 28174:766.611   Data:  02 78
T7474 28174:766.635 - 0.080ms returns 0x02
T7474 28174:766.658 JLINK_Step()
T7474 28174:766.675    -- Read from DA cache (2 bytes @ 0x08002000)
T7474 28174:766.701    -- Not simulated
T7474 28174:766.751    -- CPU_WriteMem(4 bytes @ 0xE0001004)
T7474 28174:833.995 - 67.370ms returns 0x00
T7474 28174:834.043 JLINK_ReadReg(R15 (PC))
T7474 28174:834.051 - 0.009ms returns 0x08002002
T7474 28174:834.057 JLINK_ReadReg(XPSR)
T7474 28174:834.061 - 0.006ms returns 0x01000000
T7474 28174:834.138   JLINK_ReadMemEx(0x08002002, 0x0002 Bytes, ..., Flags = 0x02000000)
T7474 28174:834.160    -- CPU_ReadMem(64 bytes @ 0x08002000)
T7474 28174:844.478    -- Updating DA cache (64 bytes @ 0x08002000)
T7474 28174:844.508    -- Read from DA cache (2 bytes @ 0x08002002)
T7474 28174:844.514   Data:  02 78
T7474 28174:844.520 - 10.384ms returns 0x02
T7474 28174:844.531   JLINK_ReadMemEx(0x08002004, 0x003C Bytes, ..., Flags = 0x02000000)
T7474 28174:844.540    -- Read from DA cache (60 bytes @ 0x08002004)
T7474 28174:844.546   Data:  92 07 D3 0E FF 22 9A 40 91 43 82 78 92 07 12 0E ...
T7474 28174:844.551 - 0.021ms returns 0x3C
T7474 28174:844.556   JLINK_ReadMemEx(0x08002004, 0x0002 Bytes, ..., Flags = 0x02000000)
T7474 28174:844.562    -- Read from DA cache (2 bytes @ 0x08002004)
T7474 28174:844.567   Data:  92 07
T7474 28174:844.572 - 0.018ms returns 0x02
T7474 28174:844.580 JLINK_Step()
T7474 28174:844.584    -- Read from DA cache (2 bytes @ 0x08002002)
T7474 28174:844.592    -- CPU_ReadMem(4 bytes @ 0xE0001004)
T7474 28174:847.733    -- Not simulated
T7474 28174:903.366 - 58.800ms returns 0x00
T7474 28174:903.391 JLINK_ReadReg(R15 (PC))
T7474 28174:903.397 - 0.008ms returns 0x08002004
T7474 28174:903.402 JLINK_ReadReg(XPSR)
T7474 28174:903.406 - 0.006ms returns 0x01000000
T7474 28174:903.480   JLINK_ReadMemEx(0x08002004, 0x003C Bytes, ..., Flags = 0x02000000)
T7474 28174:903.498    -- CPU_ReadMem(64 bytes @ 0x08002000)
T7474 28174:913.693    -- Updating DA cache (64 bytes @ 0x08002000)
T7474 28174:913.707    -- Read from DA cache (60 bytes @ 0x08002004)
T7474 28174:913.714   Data:  92 07 D3 0E FF 22 9A 40 91 43 82 78 92 07 12 0E ...
T7474 28174:913.719 - 10.242ms returns 0x3C
T7474 28174:913.728   JLINK_ReadMemEx(0x08002004, 0x0002 Bytes, ..., Flags = 0x02000000)
T7474 28174:913.735    -- Read from DA cache (2 bytes @ 0x08002004)
T7474 28174:913.741   Data:  92 07
